T2532F780 000:002.760   SEGGER J-Link V7.96j Log File
T2532F780 000:002.884   DLL Compiled: May 29 2024 15:42:37
T2532F780 000:002.887   Logging started @ 2024-10-06 09:26
T2532F780 000:002.890   Process: /home/xenwithu/.eclipse/com.renesas.platform_1508544911/DebugComp/RA/e2-server-gdb
T2532F780 000:002.893 - 2.892ms
T2532F780 000:002.897 JLINK_GetDLLVersion()
T2532F780 000:002.900 - 0.002ms returns 79610
T2532F780 000:003.217 JLINK_OpenEx(...)
T2532F780 000:009.237   Firmware: J-Link OB-S124 compiled Apr 23 2024 10:48:24
T2532F780 000:010.574   Firmware: J-Link OB-S124 compiled Apr 23 2024 10:48:24
T2532F780 000:041.029   Hardware: V1.00
T2532F780 000:041.047   S/N: 831155721
T2532F780 000:041.051   OEM: SEGGER
T2532F780 000:041.055   Feature(s): None
T2532F780 000:042.144   Bootloader: 2019 Oct 15
T2532F780 000:043.337   USB speed mode: Full speed (12 MBit/s)
T2532F780 000:044.263   TELNET listener socket opened on port 19021
T2532F780 000:044.357   WEBSRV WEBSRV_Init(): Starting webserver thread(s)
T2532F780 000:044.456   WEBSRV Webserver running on local port 19080
T2532F780 000:044.476   Looking for J-Link GUI Server exe at: ARM/Segger_v7.96.10/JLinkGUIServerExe
T2532F780 000:044.485   Looking for J-Link GUI Server exe at: /opt/SEGGER/JLink/JLinkGUIServerExe
T2532F780 000:044.495   Forking J-Link GUI Server: /opt/SEGGER/JLink/JLinkGUIServerExe
T2532F780 000:063.514   J-Link GUI Server info: "J-Link GUI server V7.88d "
T2532F780 000:063.606   J-Link GUI Server: Connection breakdown.
T2532F780 000:063.643 - 60.418ms returns "O.K."
T2532F780 000:063.672 JLINK_ExecCommand("ProjectFile="/home/xenwithu/e2_studio/workspace/Day4_Temperature_Basic/Day4_Temperature_Basic Debug_Flat.jlink"", ...). 
T2532F780 000:089.648 - 25.976ms returns 0x00
T2532F780 000:089.785 JLINK_ExecCommand("device=R7FA6M5BH", ...). 
T2532F780 000:090.064   Flash bank @ 0x0100A100: SFL: Parsing sectorization info from ELF file
T2532F780 000:090.070     FlashDevice.SectorInfo[0]: .SectorSize = 0x00000010, .SectorStartAddr = 0x00000000
T2532F780 000:090.074   FlashBank @0x0100A100: Sectorization info from SFL ELF file ignored because sectorization override from DLL / XML file is active.
T2532F780 000:090.941   Flash bank @ 0x60000000: SFL: Parsing sectorization info from ELF file
T2532F780 000:090.949     FlashDevice.SectorInfo[0]: .SectorSize = 0x00010000, .SectorStartAddr = 0x00000000
T2532F780 000:100.081   Device "R7FA6M5BH" selected.
T2532F780 000:100.208 - 10.418ms returns 0x00
T2532F780 000:100.217 JLINK_TIF_GetAvailable(...)
T2532F780 000:100.511 - 0.294ms
T2532F780 000:100.518 JLINK_TIF_Select(JLINKARM_TIF_SWD)
T2532F780 000:101.294 - 0.776ms returns 0x00
T2532F780 000:101.301 JLINK_SetSpeed(4000)
T2532F780 000:101.487 - 0.186ms
T2532F780 000:101.503 JLINK_ReadMem(0xE000EDF0, 0x4 Bytes, ...)
T2532F780 000:103.083   ConfigTargetSettings() start
T2532F780 000:103.092    J-Link Script File: Executing ConfigTargetSettings()
T2532F780 000:103.100   Configuring FlashDLNoRMWThreshold=0x200 in order to make sure that option bytes programming is done via read-modify-write
T2532F780 000:106.308   ConfigTargetSettings() end - Took 3.21ms
T2532F780 000:106.316   InitTarget() start
T2532F780 000:106.320    J-Link Script File: Executing InitTarget()
T2532F780 000:106.324   SWD selected. Executing JTAG -> SWD switching sequence.
T2532F780 000:110.251   DAP initialized successfully.
T2532F780 000:110.261   Determining TrustZone configuration...
T2532F780 000:112.778     Secure Debug: Enabled (SSD)
T2532F780 000:112.788   Determining currently configured transfer type by reading the AHB-AP CSW register.
T2532F780 000:114.747     --> Correct transfer type configured. Done.
T2532F780 000:114.758   InitTarget() end - Took 8.43ms
T2532F780 000:115.999   Found SW-DP with ID 0x6BA02477
T2532F780 000:120.846   DPIDR: 0x6BA02477
T2532F780 000:120.859   CoreSight SoC-400 or earlier
T2532F780 000:120.863   Scanning AP map to find all available APs
T2532F780 000:123.374   AP[2]: Stopped AP scan as end of AP map has been reached
T2532F780 000:123.405   AP[0]: AHB-AP (IDR: 0x84770001)
T2532F780 000:123.409   AP[1]: APB-AP (IDR: 0x54770002)
T2532F780 000:123.413   Iterating through AP map to find AHB-AP to use
T2532F780 000:125.353   AP[0]: Core found
T2532F780 000:125.373   AP[0]: AHB-AP ROM base: 0xE00FE000
T2532F780 000:126.309   CPUID register: 0x410FD214. Implementer code: 0x41 (ARM)
T2532F780 000:126.328   Feature set: Mainline
T2532F780 000:127.187   Cache: No cache
T2532F780 000:127.200   Found Cortex-M33 r0p4, Little endian.
T2532F780 000:128.076   -- Max. mem block: 0x00001B00
T2532F780 000:129.837   CPU_ReadMem(4 bytes @ 0xE000EDF0)
T2532F780 000:131.157   CPU_WriteMem(4 bytes @ 0xE000EDF0)
T2532F780 000:132.195   CPU_ReadMem(4 bytes @ 0xE0002000)
T2532F780 000:133.196   FPUnit: 8 code (BP) slots and 0 literal slots
T2532F780 000:133.220   CPU_ReadMem(4 bytes @ 0xE000EDFC)
T2532F780 000:134.217   CPU_WriteMem(4 bytes @ 0xE000EDFC)
T2532F780 000:135.266   CPU_ReadMem(4 bytes @ 0xE0001000)
T2532F780 000:136.120   CPU_ReadMem(4 bytes @ 0xE0001000)
T2532F780 000:137.120   CPU_ReadMem(4 bytes @ 0xE0001028)
T2532F780 000:137.983   CPU_ReadMem(4 bytes @ 0xE0001038)
T2532F780 000:138.970   CPU_ReadMem(4 bytes @ 0xE0001048)
T2532F780 000:139.991   CPU_ReadMem(4 bytes @ 0xE0001058)
T2532F780 000:140.995   CPU_WriteMem(4 bytes @ 0xE0001000)
T2532F780 000:141.879   CPU_ReadMem(4 bytes @ 0xE000ED88)
T2532F780 000:142.718   CPU_WriteMem(4 bytes @ 0xE000ED88)
T2532F780 000:143.434   CPU_ReadMem(4 bytes @ 0xE000ED88)
T2532F780 000:144.067   CPU_WriteMem(4 bytes @ 0xE000ED88)
T2532F780 000:145.075   CPU_ReadMem(4 bytes @ 0xE000EFB8)
T2532F780 000:145.909   Security extension: implemented
T2532F780 000:145.929   Secure debug: enabled
T2532F780 000:145.933   CoreSight components:
T2532F780 000:145.937   ROMTbl[0] @ E00FE000
T2532F780 000:145.943   CPU_ReadMem(64 bytes @ 0xE00FE000)
T2532F780 000:147.661   CPU_ReadMem(32 bytes @ 0xE0044FE0)
T2532F780 000:148.803   CPU_ReadMem(4 bytes @ 0xE0044FBC)
T2532F780 000:149.587   CPU_ReadMem(4 bytes @ 0xE0044FCC)
T2532F780 000:150.177   [0][0]: E0044000 CID B105900D PID 005BB906 DEVARCH 00000000 DEVTYPE 14 CTI (?)
T2532F780 000:150.186   CPU_ReadMem(32 bytes @ 0xE0047FE0)
T2532F780 000:151.359   CPU_ReadMem(4 bytes @ 0xE0047FBC)
T2532F780 000:152.227   CPU_ReadMem(4 bytes @ 0xE0047FCC)
T2532F780 000:153.158   [0][1]: E0047000 CID B105900D PID 003BB908 DEVARCH 00000000 DEVTYPE 12 CSTF
T2532F780 000:153.181   CPU_ReadMem(32 bytes @ 0xE0048FE0)
T2532F780 000:154.363   CPU_ReadMem(4 bytes @ 0xE0048FBC)
T2532F780 000:155.240   CPU_ReadMem(4 bytes @ 0xE0048FCC)
T2532F780 000:156.077   [0][2]: E0048000 CID B105900D PID 001BB961 DEVARCH 00000000 DEVTYPE 21 ETB
T2532F780 000:156.086   CPU_ReadMem(32 bytes @ 0xE0049FE0)
T2532F780 000:157.023   [0][3]: E0049000 CID B105F00D PID 001BB101 TSG
T2532F780 000:157.043   CPU_ReadMem(32 bytes @ 0xE0040FE0)
T2532F780 000:158.322   CPU_ReadMem(4 bytes @ 0xE0040FBC)
T2532F780 000:159.220   CPU_ReadMem(4 bytes @ 0xE0040FCC)
T2532F780 000:160.176   [0][4]: E0040000 CID B105900D PID 000BBD21 DEVARCH 00000000 DEVTYPE 11 TPIU
T2532F780 000:160.199   CPU_ReadMem(32 bytes @ 0xE00FFFE0)
T2532F780 000:161.525   [0][5]: E00FF000 CID B105100D PID 000BB4C9 ROM Table
T2532F780 000:161.547   ROMTbl[1] @ E00FF000
T2532F780 000:161.554   CPU_ReadMem(64 bytes @ 0xE00FF000)
T2532F780 000:163.220   CPU_ReadMem(32 bytes @ 0xE000EFE0)
T2532F780 000:164.407   CPU_ReadMem(4 bytes @ 0xE000EFBC)
T2532F780 000:165.271   CPU_ReadMem(4 bytes @ 0xE000EFCC)
T2532F780 000:166.052   [1][0]: E000E000 CID B105900D PID 000BBD21 DEVARCH 47702A04 DEVTYPE 00 Cortex-M33
T2532F780 000:166.060   CPU_ReadMem(32 bytes @ 0xE0001FE0)
T2532F780 000:167.235   CPU_ReadMem(4 bytes @ 0xE0001FBC)
T2532F780 000:168.220   CPU_ReadMem(4 bytes @ 0xE0001FCC)
T2532F780 000:168.919   [1][1]: E0001000 CID B105900D PID 000BBD21 DEVARCH 47701A02 DEVTYPE 00 DWT
T2532F780 000:168.931   CPU_ReadMem(32 bytes @ 0xE0002FE0)
T2532F780 000:170.134   CPU_ReadMem(4 bytes @ 0xE0002FBC)
T2532F780 000:170.737   CPU_ReadMem(4 bytes @ 0xE0002FCC)
T2532F780 000:171.512   [1][2]: E0002000 CID B105900D PID 000BBD21 DEVARCH 47701A03 DEVTYPE 00 FPB
T2532F780 000:171.523   CPU_ReadMem(32 bytes @ 0xE0000FE0)
T2532F780 000:172.520   CPU_ReadMem(4 bytes @ 0xE0000FBC)
T2532F780 000:173.340   CPU_ReadMem(4 bytes @ 0xE0000FCC)
T2532F780 000:174.215   [1][3]: E0000000 CID B105900D PID 000BBD21 DEVARCH 47701A01 DEVTYPE 43 ITM
T2532F780 000:174.223   CPU_ReadMem(32 bytes @ 0xE0041FE0)
T2532F780 000:175.522   CPU_ReadMem(4 bytes @ 0xE0041FBC)
T2532F780 000:176.388   CPU_ReadMem(4 bytes @ 0xE0041FCC)
T2532F780 000:177.218   [1][5]: E0041000 CID B105900D PID 002BBD21 DEVARCH 47724A13 DEVTYPE 13 ETM
T2532F780 000:177.227   CPU_ReadMem(32 bytes @ 0xE0042FE0)
T2532F780 000:178.303   CPU_ReadMem(4 bytes @ 0xE0042FBC)
T2532F780 000:179.087   CPU_ReadMem(4 bytes @ 0xE0042FCC)
T2532F780 000:179.939   [1][6]: E0042000 CID B105900D PID 000BBD21 DEVARCH 47701A14 DEVTYPE 14 CSS600-CTI
T2532F780 000:179.995   CPU_ReadMem(4 bytes @ 0xE000EDF0)
T2532F780 000:180.815   Data:  01 00 10 01
T2532F780 000:180.827   Debug reg: DHCSR
T2532F780 000:180.831 - 79.328ms returns 0
T2532F780 000:180.842 JLINK_ReadMem(0x400E002C, 0x4 Bytes, ...)
T2532F780 000:180.848   CPU_ReadMem(4 bytes @ 0x400E002C)
T2532F780 000:181.578   Data:  02 00 00 00
T2532F780 000:181.600 - 0.759ms returns 0
T2532F780 000:181.630 JLINK_ReadMem(0xE000EDF0, 0x4 Bytes, ...)
T2532F780 000:181.642   CPU_ReadMem(4 bytes @ 0xE000EDF0)
T2532F780 000:182.267   Data:  01 00 10 01
T2532F780 000:182.279   Debug reg: DHCSR
T2532F780 000:182.284 - 0.654ms returns 0
T2532F780 000:182.300 JLINK_ReadMem(0xE000EDF0, 0x4 Bytes, ...)
T2532F780 000:182.307   CPU_ReadMem(4 bytes @ 0xE000EDF0)
T2532F780 000:183.131   Data:  01 00 10 01
T2532F780 000:183.139   Debug reg: DHCSR
T2532F780 000:183.143 - 0.844ms returns 0
T2532F780 000:183.151 JLINK_ReadMem(0x400E001C, 0x4 Bytes, ...)
T2532F780 000:183.158   CPU_ReadMem(4 bytes @ 0x400E001C)
T2532F780 000:184.110   Data:  00 34 00 00
T2532F780 000:184.132 - 0.981ms returns 0
T2532F780 000:184.153 JLINK_ReadMem(0xE000EDF0, 0x4 Bytes, ...)
T2532F780 000:184.165   CPU_ReadMem(4 bytes @ 0xE000EDF0)
T2532F780 000:185.149   Data:  01 00 10 01
T2532F780 000:185.171   Debug reg: DHCSR
T2532F780 000:185.176 - 1.022ms returns 0
T2532F780 000:185.189 JLINK_ReadMem(0x400E0018, 0x4 Bytes, ...)
T2532F780 000:185.201   CPU_ReadMem(4 bytes @ 0x400E0018)
T2532F780 000:186.031   Data:  00 80 00 00
T2532F780 000:186.042 - 0.853ms returns 0
T2532F780 000:186.058 JLINK_ReadMem(0xE000EDF0, 0x4 Bytes, ...)
T2532F780 000:186.064   CPU_ReadMem(4 bytes @ 0xE000EDF0)
T2532F780 000:186.780   Data:  01 00 10 01
T2532F780 000:186.792   Debug reg: DHCSR
T2532F780 000:186.797 - 0.739ms returns 0
T2532F780 000:186.804 JLINK_ReadMem(0x400E0020, 0x4 Bytes, ...)
T2532F780 000:186.810   CPU_ReadMem(4 bytes @ 0x400E0020)
T2532F780 000:187.584   Data:  00 00 00 00
T2532F780 000:187.595 - 0.792ms returns 0
T2532F780 000:187.607 JLINK_ReadMem(0xE000EDF0, 0x4 Bytes, ...)
T2532F780 000:187.614   CPU_ReadMem(4 bytes @ 0xE000EDF0)
T2532F780 000:188.426   Data:  01 00 10 01
T2532F780 000:188.437   Debug reg: DHCSR
T2532F780 000:188.442 - 0.834ms returns 0
T2532F780 000:188.449 JLINK_ReadMem(0x400E0028, 0x4 Bytes, ...)
T2532F780 000:188.456   CPU_ReadMem(4 bytes @ 0x400E0028)
T2532F780 000:189.313   Data:  00 0C 00 00
T2532F780 000:189.325 - 0.876ms returns 0
T2532F780 000:189.338 JLINK_ReadMem(0xE000EDF0, 0x4 Bytes, ...)
T2532F780 000:189.345   CPU_ReadMem(4 bytes @ 0xE000EDF0)
T2532F780 000:190.210   Data:  01 00 10 01
T2532F780 000:190.218   Debug reg: DHCSR
T2532F780 000:190.223 - 0.885ms returns 0
T2532F780 000:190.229 JLINK_ReadMem(0x400E0024, 0x4 Bytes, ...)
T2532F780 000:190.236   CPU_ReadMem(4 bytes @ 0x400E0024)
T2532F780 000:191.063   Data:  00 20 00 00
T2532F780 000:191.074 - 0.845ms returns 0
T2532F780 000:191.086 JLINK_ReadMem(0xE000EDF0, 0x4 Bytes, ...)
T2532F780 000:191.093   CPU_ReadMem(4 bytes @ 0xE000EDF0)
T2532F780 000:192.076   Data:  01 00 10 01
T2532F780 000:192.113   Debug reg: DHCSR
T2532F780 000:192.117 - 1.032ms returns 0
T2532F780 000:192.131 JLINK_ReadMem(0x400E002C, 0x4 Bytes, ...)
T2532F780 000:192.143   CPU_ReadMem(4 bytes @ 0x400E002C)
T2532F780 000:193.099   Data:  02 00 00 00
T2532F780 000:193.121 - 0.989ms returns 0
T2532F780 000:193.143 JLINK_ReadMem(0xE000EDF0, 0x4 Bytes, ...)
T2532F780 000:193.155   CPU_ReadMem(4 bytes @ 0xE000EDF0)
T2532F780 000:193.977   Data:  01 00 10 01
T2532F780 000:193.988   Debug reg: DHCSR
T2532F780 000:193.992 - 0.850ms returns 0
T2532F780 000:194.000 JLINK_ReadMem(0x400E002C, 0x4 Bytes, ...)
T2532F780 000:194.007   CPU_ReadMem(4 bytes @ 0x400E002C)
T2532F780 000:194.696   Data:  02 00 00 00
T2532F780 000:194.710 - 0.711ms returns 0
T2532F780 000:196.693 JLINK_Close()
T2532F780 000:221.523 - 24.829ms
T2532F780 000:221.540   
T2532F780 000:221.544   Closed
